! LD005-03-0796-20 2.4mm 011_4.S2P
! FTauMode : =MODE(FTau,1.0)
! FMaxMode : =MODE(FMax,1.0)
! [S]Parameter Files 2.4mm Device
! Fixturing is IS de-embedded
! External Bias Tee's
! OPERATOR : System Administrator
! TIME : 10:32:51 AM
! DATE : 12/9/2003
! SYSTEM NAME : Engineering's 8510c
! TECH : Steve Mosac
! CALIBRATION : TRL A0137234
! LOT ID : LD005-03-0796
! WAFER ID : -20
! RETICLE No. : 0-1
! NOMENCLATURE : 2.4mm
! SERIAL NUMBER : 1
! Rg VALUE : 
! WavevueVersion : 4.01.14
! DCBiasTarget : Vd = 10.000 V, Id = 200.000 mA
! DCBiasActual : Vg = -.775 V, Ig = -.011 mA, Vd = 10.0 V, Id = 202 mA
! TestEndDate : 12/9/2003
! TestEndTime : 10:32:59 AM
! DCBiasResistance : Rg = 68 kOhm, Rd = 49.6 Ohm
! FREQ-GHZ  S11MAG  S11ANG   S21MAG  S21ANG   S12MAG  S12ANG   S22MAG  S22ANG
# GHZ S MA R 50
  0.50000    0.888 -127.76   14.955  107.43    0.028   25.76    0.263 -112.35
  0.61500    0.890 -138.77   12.591  100.23    0.029   21.89    0.257 -123.18
  0.73000    0.890 -147.31   10.936   94.18    0.029   17.38    0.257 -130.28
  0.84500    0.885 -154.23    9.604   89.10    0.031   15.87    0.255 -135.57
  0.96000    0.880 -159.79    8.538   84.84    0.029   14.02    0.251 -139.00
  1.07500    0.881 -164.95    7.660   80.93    0.030   10.36    0.254 -143.10
  1.19000    0.883 -168.89    6.960   76.88    0.032   10.99    0.258 -147.00
  1.30500    0.878 -172.77    6.391   73.43    0.031    8.65    0.259 -148.48
  1.42000    0.878 -176.11    5.902   70.04    0.031    6.87    0.261 -150.83
  1.53500    0.877 -179.46    5.490   66.90    0.031    6.54    0.265 -153.40
  1.65000    0.880  177.18    5.112   63.40    0.033    5.28    0.267 -154.98
  1.76500    0.877  174.43    4.778   60.43    0.032    3.35    0.270 -156.63
  1.88000    0.878  172.05    4.520   57.61    0.032    2.91    0.273 -157.47
  1.99500    0.874  169.54    4.264   54.82    0.034    1.02    0.275 -159.22
  2.11000    0.874  166.92    4.044   51.80    0.034   -0.07    0.280 -160.09
  2.22500    0.879  164.32    3.852   49.02    0.034   -0.85    0.286 -161.74
  2.34000    0.872  162.26    3.675   46.13    0.033   -0.45    0.287 -162.24
  2.45500    0.868  160.09    3.509   43.56    0.033   -3.36    0.291 -163.93
  2.57000    0.872  157.71    3.367   40.57    0.034    0.37    0.296 -164.51
  2.68500    0.875  155.95    3.223   38.02    0.035   -1.30    0.301 -165.83
  2.80000    0.872  153.52    3.109   34.90    0.033   -3.03    0.303 -167.58
  2.91500    0.872  151.07    3.018   32.55    0.035   -3.45    0.308 -169.06
  3.03000    0.867  149.61    2.879   29.86    0.035   -4.73    0.311 -169.48
  3.14500    0.867  147.51    2.794   27.07    0.036   -5.91    0.318 -170.71
  3.26000    0.870  145.12    2.703   24.52    0.035   -3.20    0.320 -172.20
  3.37500    0.863  143.21    2.621   22.01    0.036   -5.54    0.321 -173.05
  3.49000    0.866  140.99    2.538   19.21    0.037   -6.11    0.327 -174.08
  3.60500    0.862  139.05    2.464   16.63    0.037   -5.75    0.331 -175.23
  3.72000    0.862  137.66    2.402   14.17    0.037   -7.94    0.335 -176.39
  3.83500    0.860  135.53    2.337   11.33    0.038   -7.75    0.344 -177.16
  3.95000    0.862  133.57    2.276    9.22    0.038   -7.68    0.348 -179.31
  4.06500    0.860  131.36    2.219    6.52    0.039   -8.82    0.348  179.57
  4.18000    0.857  129.33    2.161    3.87    0.040   -9.40    0.353  178.29
  4.29500    0.854  127.45    2.116    1.31    0.041   -9.84    0.356  177.45
  4.41000    0.858  125.41    2.072   -1.17    0.041  -10.57    0.359  175.68
  4.52500    0.853  123.50    2.032   -3.65    0.042   -9.61    0.363  174.66
  4.64000    0.856  121.13    1.995   -6.64    0.043  -11.22    0.365  173.03
  4.75500    0.854  119.06    1.956   -9.12    0.044  -12.95    0.368  171.87
  4.87000    0.854  116.89    1.924  -11.57    0.044  -13.31    0.371  170.31
  4.98500    0.849  114.81    1.889  -14.43    0.045  -13.48    0.374  169.17
  5.10000    0.851  112.42    1.862  -17.21    0.046  -15.20    0.375  167.65
  5.21500    0.849  110.20    1.833  -19.66    0.047  -14.94    0.379  166.05
  5.33000    0.846  107.81    1.806  -22.56    0.047  -17.08    0.380  164.37
  5.44500    0.842  105.55    1.772  -24.90    0.049  -17.61    0.380  163.13
  5.56000    0.843  103.47    1.749  -27.70    0.049  -18.70    0.385  161.50
  5.67500    0.841  100.79    1.726  -30.42    0.051  -19.45    0.385  159.70
  5.79000    0.839   98.64    1.704  -33.09    0.051  -20.92    0.386  158.30
  5.90500    0.840   96.02    1.688  -35.82    0.052  -20.65    0.387  156.89
  6.02000    0.841   93.61    1.663  -38.56    0.055  -23.08    0.392  155.03
  6.13500    0.835   91.13    1.639  -41.30    0.055  -23.24    0.390  153.66
  6.25000    0.838   88.51    1.627  -43.99    0.057  -24.41    0.392  151.84
  6.36500    0.838   85.94    1.610  -46.86    0.058  -26.44    0.392  149.89
  6.48000    0.834   83.39    1.590  -49.75    0.060  -27.59    0.393  147.96
  6.59500    0.834   80.79    1.574  -52.60    0.061  -28.72    0.397  146.27
  6.71000    0.831   77.92    1.559  -55.53    0.063  -31.03    0.396  144.17
  6.82500    0.829   75.06    1.543  -58.39    0.064  -32.27    0.398  142.23
  6.94000    0.828   72.25    1.524  -61.35    0.066  -33.76    0.398  140.26
  7.05500    0.830   69.39    1.510  -64.04    0.068  -35.18    0.400  138.06
  7.17000    0.826   66.51    1.491  -67.12    0.068  -36.75    0.400  136.57
  7.28500    0.828   63.55    1.479  -70.05    0.070  -38.76    0.398  134.35
  7.40000    0.824   60.58    1.467  -73.04    0.072  -40.25    0.399  131.99
  7.51500    0.824   57.73    1.456  -76.13    0.072  -41.99    0.400  129.37
  7.63000    0.819   54.79    1.434  -78.75    0.074  -43.65    0.401  127.54
  7.74500    0.817   51.95    1.418  -81.88    0.075  -44.67    0.400  125.43
  7.86000    0.821   49.04    1.410  -84.66    0.079  -46.38    0.401  123.02
  7.97500    0.819   45.81    1.394  -87.73    0.080  -48.85    0.401  121.10
  8.09000    0.815   43.04    1.384  -90.58    0.082  -51.34    0.404  118.41
  8.20500    0.819   40.06    1.371  -93.60    0.084  -52.48    0.402  116.19
  8.32000    0.818   36.93    1.360  -96.73    0.086  -54.86    0.404  113.77
  8.43500    0.817   33.69    1.349  -99.70    0.087  -56.81    0.404  111.24
  8.55000    0.822   30.70    1.334 -102.77    0.089  -59.07    0.402  108.59
  8.66500    0.821   27.81    1.326 -105.84    0.091  -61.01    0.406  106.01
  8.78000    0.825   24.92    1.312 -108.81    0.092  -63.48    0.405  103.05
  8.89500    0.826   21.57    1.304 -112.00    0.094  -65.78    0.410  100.73
  9.01000    0.831   18.30    1.293 -115.08    0.097  -67.53    0.409   98.04
  9.12500    0.834   14.72    1.281 -118.45    0.099  -70.12    0.409   95.05
  9.24000    0.834   11.67    1.270 -121.64    0.100  -72.59    0.411   92.80
  9.35500    0.830    8.47    1.253 -124.77    0.102  -74.49    0.409   89.85
  9.47000    0.826    5.30    1.239 -127.99    0.103  -76.40    0.408   87.31
  9.58500    0.825    2.49    1.225 -131.11    0.105  -78.83    0.413   84.14
  9.70000    0.827   -0.83    1.213 -134.14    0.108  -81.08    0.410   81.03
  9.81500    0.827   -3.68    1.202 -137.24    0.110  -83.76    0.412   77.86
  9.93000    0.830   -7.39    1.190 -140.59    0.111  -86.86    0.411   74.76
 10.04500    0.829  -10.57    1.176 -143.83    0.113  -89.54    0.410   71.76
 10.16000    0.835  -13.72    1.161 -146.99    0.114  -92.03    0.411   68.79
 10.27500    0.834  -16.68    1.147 -150.21    0.116  -94.01    0.412   65.90
 10.39000    0.836  -19.85    1.137 -153.36    0.117  -96.25    0.412   63.03
 10.50500    0.839  -22.93    1.121 -156.42    0.119  -99.28    0.410   59.87
 10.62000    0.842  -26.14    1.114 -159.89    0.120 -101.79    0.409   56.37
 10.73500    0.841  -29.16    1.100 -162.82    0.122 -103.93    0.409   53.21
 10.85000    0.844  -32.28    1.088 -166.15    0.123 -106.72    0.408   49.56
 10.96500    0.843  -35.31    1.077 -169.37    0.126 -108.75    0.410   45.86
 11.08000    0.848  -38.34    1.067 -172.68    0.127 -111.58    0.412   42.62
 11.19500    0.848  -41.87    1.056 -176.10    0.130 -114.32    0.414   39.23
 11.31000    0.849  -45.09    1.040 -179.26    0.130 -117.50    0.412   36.17
 11.42500    0.851  -48.61    1.029  177.33    0.133 -119.95    0.410   33.08
 11.54000    0.855  -51.62    1.018  174.18    0.134 -122.37    0.410   28.90
 11.65500    0.858  -54.85    1.008  170.74    0.136 -125.50    0.408   25.39
 11.77000    0.858  -57.99    0.995  167.31    0.139 -128.29    0.408   21.16
 11.88500    0.863  -61.34    0.983  163.94    0.140 -130.80    0.414   17.07
 12.00000    0.865  -64.57    0.970  160.56    0.142 -133.88    0.416   13.40
!